
T16A8 000:262 SEGGER J-Link V6.12a Log File (0001ms, 0048ms total)
T16A8 000:262 DLL Compiled: Dec  2 2016 16:44:26 (0001ms, 0048ms total)
T16A8 000:262 Logging started @ 2018-12-12 15:16 (0001ms, 0048ms total)
T16A8 000:263 JLINK_SetWarnOutHandler(...) (0000ms, 0048ms total)
T16A8 000:263 JLINK_OpenEx(...)
Firmware: J-Link V9 compiled Apr 20 2018 16:47:26
Hardware: V9.30
S/N: 36310083
Feature(s): RDI, GDB, FlashDL, FlashBP, JFlashWEBSRV Webserver running on local port 19080 (0026ms, 0074ms total)
T16A8 000:263   returns O.K. (0026ms, 0074ms total)
T16A8 000:289 JLINK_SetErrorOutHandler(...) (0000ms, 0074ms total)
T16A8 000:289 JLINK_ExecCommand("ProjectFile = "E:\nrf51882_project\nRF5_SDK_12.3.0_d7731ad\examples\ble_peripheral\ble_app_uart\pca10028\s130\arm4\JLinkSettings.ini"", ...). D:\SEGGER\JLink_V612a\JLinkDevices.xml evaluated successfully.  returns 0x00 (0187ms, 0261ms total)
T16A8 000:478 JLINK_ExecCommand("Device = nRF51422_xxAC", ...). Device "NRF51422_XXAC" selected.  returns 0x00 (0002ms, 0263ms total)
T16A8 000:480 JLINK_ExecCommand("DisableConnectionTimeout", ...).   returns 0x01 (0000ms, 0263ms total)
T16A8 000:480 JLINK_GetHardwareVersion()  returns 0x16B48 (0000ms, 0263ms total)
T16A8 000:480 JLINK_GetDLLVersion()  returns 61201 (0000ms, 0263ms total)
T16A8 000:480 JLINK_GetFirmwareString(...) (0000ms, 0263ms total)
T16A8 000:500 JLINK_GetDLLVersion()  returns 61201 (0000ms, 0263ms total)
T16A8 000:500 JLINK_GetCompileDateTime() (0000ms, 0263ms total)
T16A8 000:502 JLINK_GetFirmwareString(...) (0000ms, 0263ms total)
T16A8 000:507 JLINK_GetHardwareVersion()  returns 0x16B48 (0000ms, 0263ms total)
T16A8 000:520 JLINK_TIF_Select(JLINKARM_TIF_SWD)  returns 0x00 (0003ms, 0266ms total)
T16A8 000:523 JLINK_SetSpeed(2000) (0001ms, 0267ms total)
T16A8 000:524 JLINK_GetId() >0x108 TIF>Found SWD-DP with ID 0x0BB11477 >0x0D TIF> >0x28 TIF> >0x0D TIF> >0x28 TIF> >0x0D TIF> >0x28 TIF> >0x0D TIF> >0x28 TIF> >0x35 TIF> >0x0D TIF> >0x28 TIF> >0x0D TIF> >0x28 TIF> >0x35 TIF> >0x35 TIF> >0x35 TIF>AP-IDR: 0x04770021, Type: AHB-AP >0x0D TIF> >0x28 TIF> >0x0D TIF> >0x28 TIF> >0x0D TIF> >0x28 TIF> >0x35 TIF> >0x35 TIF> >0x0D TIF> >0x28 TIF> >0x35 TIF> >0x35 TIF>Found Cortex-M0 r0p0, Little endian. -- CPU_ReadMem(4 bytes @ 0xE000EDF0)
 -- CPU_ReadMem(4 bytes @ 0xE0002000)FPUnit: 4 code (BP) slots and 0 literal slots -- CPU_ReadMem(4 bytes @ 0xE000EDFC) -- CPU_ReadMem(4 bytes @ 0xE0001000) -- CPU_WriteMem(4 bytes @ 0xE0001000)CoreSight components:ROMTbl 0 @ F0000000 -- CPU_ReadMem(16 bytes @ 0xF0000000) -- CPU_ReadMem(16 bytes @ 0xE00FFFF0) -- CPU_ReadMem(16 bytes @ 0xE00FFFE0)ROMTbl 0 [0]: F00FF000, CID: B105100D, PID: 000BB471 ROM TableROMTbl 1 @ E00FF000 -- CPU_ReadMem(16 bytes @ 0xE00FF000) -- CPU_ReadMem(16 bytes @ 0xE000EFF0)
 -- CPU_ReadMem(16 bytes @ 0xE000EFE0)ROMTbl 1 [0]: FFF0F000, CID: B105E00D, PID: 000BB008 SCS -- CPU_ReadMem(16 bytes @ 0xE0001FF0) -- CPU_ReadMem(16 bytes @ 0xE0001FE0)ROMTbl 1 [1]: FFF02000, CID: B105E00D, PID: 000BB00A DWT -- CPU_ReadMem(16 bytes @ 0xE0002FF0) -- CPU_ReadMem(16 bytes @ 0xE0002FE0)ROMTbl 1 [2]: FFF03000, CID: B105E00D, PID: 000BB00B FPB -- CPU_ReadMem(16 bytes @ 0xF0002FF0) -- CPU_ReadMem(16 bytes @ 0xF0002FE0)ROMTbl 0 [1]: 00002000, CID: B105900D, PID: 000BB9A3 ??? >0x35 TIF>
  returns 0x0BB11477 (0088ms, 0355ms total)
T16A8 000:612 JLINK_GetDeviceFamily()  returns 6 (0000ms, 0355ms total)
T16A8 000:615 JLINK_ReadMem (0xE00FFFF0, 0x0010 Bytes, ...) -- CPU is running -- CPU_ReadMem(16 bytes @ 0xE00FFFF0) - Data: 0D 00 00 00 10 00 00 00 05 00 00 00 B1 00 00 00  returns 0x00 (0002ms, 0357ms total)
T16A8 000:617 JLINK_ReadMem (0xE00FFFD0, 0x0020 Bytes, ...) -- CPU is running -- CPU_ReadMem(32 bytes @ 0xE00FFFD0) - Data: 04 00 00 00 00 00 00 00 00 00 00 00 00 00 00 00 ...  returns 0x00 (0001ms, 0358ms total)
T16A8 000:618 JLINK_ReadMem (0xE00FF000, 0x0018 Bytes, ...) -- CPU is running -- CPU_ReadMem(24 bytes @ 0xE00FF000) - Data: 03 F0 F0 FF 03 20 F0 FF 03 30 F0 FF 00 00 00 00 ...  returns 0x00 (0001ms, 0359ms total)
T16A8 000:619 JLINK_ReadMemU32(0xE000ED00, 0x0001 Items, ...) -- CPU is running -- CPU_ReadMem(4 bytes @ 0xE000ED00) - Data: 00 C2 0C 41  returns 0x01 (0001ms, 0360ms total)
T16A8 000:620 JLINK_SetResetType(JLINKARM_CM3_RESET_TYPE_NORMAL)  returns JLINKARM_CM3_RESET_TYPE_NORMAL (0000ms, 0360ms total)
T16A8 000:620 JLINK_Reset() -- CPU is running -- CPU_WriteMem(4 bytes @ 0xE000EDF0) -- CPU is running -- CPU_WriteMem(4 bytes @ 0xE000EDFC) >0x35 TIF> -- CPU is running -- CPU_WriteMem(4 bytes @ 0xE000ED0C) -- CPU is running -- CPU_ReadMem(4 bytes @ 0xE000EDF0) -- CPU is running -- CPU_ReadMem(4 bytes @ 0xE000EDF0) -- CPU is running -- CPU_WriteMem(4 bytes @ 0xE000EDF0) -- CPU is running -- CPU_WriteMem(4 bytes @ 0xE000EDFC) -- CPU is running -- CPU_ReadMem(4 bytes @ 0xE000EDF0)
 -- CPU_WriteMem(4 bytes @ 0xE0002000) -- CPU_ReadMem(4 bytes @ 0xE000EDFC) -- CPU_ReadMem(4 bytes @ 0xE0001000) -- CPU_WriteMem(4 bytes @ 0xE0001000) (0025ms, 0385ms total)
T16A8 000:645 JLINK_Halt()  returns 0x00 (0000ms, 0385ms total)
T16A8 000:645 JLINK_IsHalted()  returns TRUE (0000ms, 0385ms total)
T16A8 000:645 JLINK_ReadMemU32(0xE000EDF0, 0x0001 Items, ...) -- CPU_ReadMem(4 bytes @ 0xE000EDF0) - Data: 03 00 03 00  returns 0x01 (0001ms, 0386ms total)
T16A8 000:646 JLINK_WriteU32(0xE000EDF0, 0xA05F0003) -- CPU_WriteMem(4 bytes @ 0xE000EDF0)  returns 0x00 (0001ms, 0387ms total)
T16A8 000:647 JLINK_WriteU32(0xE000EDFC, 0x01000000) -- CPU_WriteMem(4 bytes @ 0xE000EDFC)  returns 0x00 (0001ms, 0388ms total)
T16A8 000:658 JLINK_GetHWStatus(...)  returns 0x00 (0000ms, 0388ms total)
T16A8 000:667 JLINK_GetNumBPUnits(Type = 0xFFFFFF00)  returns 0x04 (0000ms, 0388ms total)
T16A8 000:667 JLINK_GetNumBPUnits(Type = 0xF0)  returns 0x2000 (0000ms, 0388ms total)
T16A8 000:667 JLINK_GetNumWPUnits()  returns 0x02 (0000ms, 0388ms total)
T16A8 000:674 JLINK_GetSpeed()  returns 0x7D0 (0000ms, 0388ms total)
T16A8 000:679 JLINK_ReadMemU32(0xE000E004, 0x0001 Items, ...) -- CPU_ReadMem(4 bytes @ 0xE000E004) - Data: 00 00 00 00  returns 0x01 (0001ms, 0389ms total)
T16A8 000:680 JLINK_Halt()  returns 0x00 (0000ms, 0389ms total)
T16A8 000:680 JLINK_IsHalted()  returns TRUE (0000ms, 0389ms total)
T16A8 000:731 JLINK_WriteMem(0x20000000, 0x0478 Bytes, ...) - Data: 00 BE 0A E0 0D 78 2D 06 68 40 08 24 40 00 00 D3 ... -- CPU_WriteMem(1144 bytes @ 0x20000000)  returns 0x478 (0009ms, 0398ms total)
T16A8 000:740 JLINK_WriteReg(R0, 0x00000000)  returns 0x00 (0000ms, 0398ms total)
T16A8 000:740 JLINK_WriteReg(R1, 0x00F42400)  returns 0x00 (0000ms, 0398ms total)
T16A8 000:740 JLINK_WriteReg(R2, 0x00000001)  returns 0x00 (0000ms, 0398ms total)
T16A8 000:740 JLINK_WriteReg(R3, 0x00000000)  returns 0x00 (0000ms, 0398ms total)
T16A8 000:740 JLINK_WriteReg(R4, 0x00000000)  returns 0x00 (0000ms, 0398ms total)
T16A8 000:740 JLINK_WriteReg(R5, 0x00000000)  returns 0x00 (0000ms, 0398ms total)
T16A8 000:740 JLINK_WriteReg(R6, 0x00000000)  returns 0x00 (0000ms, 0398ms total)
T16A8 000:740 JLINK_WriteReg(R7, 0x00000000)  returns 0x00 (0000ms, 0398ms total)
T16A8 000:740 JLINK_WriteReg(R8, 0x00000000)  returns 0x00 (0000ms, 0398ms total)
T16A8 000:740 JLINK_WriteReg(R9, 0x20000474)  returns 0x00 (0000ms, 0398ms total)
T16A8 000:740 JLINK_WriteReg(R10, 0x00000000)  returns 0x00 (0000ms, 0398ms total)
T16A8 000:740 JLINK_WriteReg(R11, 0x00000000)  returns 0x00 (0000ms, 0398ms total)
T16A8 000:740 JLINK_WriteReg(R12, 0x00000000)  returns 0x00 (0000ms, 0398ms total)
T16A8 000:740 JLINK_WriteReg(R13 (SP), 0x20002000)  returns 0x00 (0000ms, 0398ms total)
T16A8 000:740 JLINK_WriteReg(R14, 0x20000001)  returns 0x00 (0000ms, 0398ms total)
T16A8 000:740 JLINK_WriteReg(R15 (PC), 0x20000028)  returns 0x00 (0000ms, 0398ms total)
T16A8 000:740 JLINK_WriteReg(XPSR, 0x01000000)  returns 0x00 (0000ms, 0398ms total)
T16A8 000:740 JLINK_WriteReg(MSP, 0x20002000)  returns 0x00 (0000ms, 0398ms total)
T16A8 000:740 JLINK_WriteReg(PSP, 0x20002000)  returns 0x00 (0000ms, 0398ms total)
T16A8 000:740 JLINK_WriteReg(CFBP, 0x00000000)  returns 0x00 (0000ms, 0398ms total)
T16A8 000:740 JLINK_SetBPEx(Addr = 0x20000000, Type = 0xFFFFFFF2) -- CPU_ReadMem(2 bytes @ 0x20000000)  returns 0x00000001 (0001ms, 0399ms total)
T16A8 000:741 JLINK_Go() -- CPU_WriteMem(2 bytes @ 0x20000000) -- CPU_ReadMem(4 bytes @ 0xE0001000) -- CPU_WriteMem(4 bytes @ 0xE0001000) -- CPU_WriteMem(4 bytes @ 0xE0002008) -- CPU_WriteMem(4 bytes @ 0xE000200C) -- CPU_WriteMem(4 bytes @ 0xE0002010) -- CPU_WriteMem(4 bytes @ 0xE0002014) -- CPU_WriteMem(4 bytes @ 0xE0001004) (0008ms, 0407ms total)
T16A8 000:749 JLINK_IsHalted() -- CPU_ReadMem(2 bytes @ 0x20000000)  returns TRUE (0005ms, 0412ms total)
T16A8 000:754 JLINK_ReadReg(R15 (PC))  returns 0x20000000 (0000ms, 0407ms total)
T16A8 000:754 JLINK_ClrBPEx(BPHandle = 0x00000001)  returns 0x00 (0000ms, 0407ms total)
T16A8 000:754 JLINK_ReadReg(R0)  returns 0x00000000 (0000ms, 0407ms total)
T16A8 000:755 JLINK_WriteReg(R0, 0x0001B000)  returns 0x00 (0000ms, 0407ms total)
T16A8 000:755 JLINK_WriteReg(R1, 0x00000400)  returns 0x00 (0000ms, 0407ms total)
T16A8 000:755 JLINK_WriteReg(R2, 0x000000FF)  returns 0x00 (0000ms, 0407ms total)
T16A8 000:755 JLINK_WriteReg(R3, 0x00000000)  returns 0x00 (0000ms, 0407ms total)
T16A8 000:755 JLINK_WriteReg(R4, 0x00000000)  returns 0x00 (0000ms, 0407ms total)
T16A8 000:755 JLINK_WriteReg(R5, 0x00000000)  returns 0x00 (0000ms, 0407ms total)
T16A8 000:755 JLINK_WriteReg(R6, 0x00000000)  returns 0x00 (0000ms, 0407ms total)
T16A8 000:755 JLINK_WriteReg(R7, 0x00000000)  returns 0x00 (0000ms, 0407ms total)
T16A8 000:755 JLINK_WriteReg(R8, 0x00000000)  returns 0x00 (0000ms, 0407ms total)
T16A8 000:755 JLINK_WriteReg(R9, 0x20000474)  returns 0x00 (0000ms, 0407ms total)
T16A8 000:755 JLINK_WriteReg(R10, 0x00000000)  returns 0x00 (0000ms, 0407ms total)
T16A8 000:755 JLINK_WriteReg(R11, 0x00000000)  returns 0x00 (0000ms, 0407ms total)
T16A8 000:755 JLINK_WriteReg(R12, 0x00000000)  returns 0x00 (0000ms, 0407ms total)
T16A8 000:755 JLINK_WriteReg(R13 (SP), 0x20002000)  returns 0x00 (0000ms, 0407ms total)
T16A8 000:755 JLINK_WriteReg(R14, 0x20000001)  returns 0x00 (0000ms, 0407ms total)
T16A8 000:755 JLINK_WriteReg(R15 (PC), 0x20000188)  returns 0x00 (0000ms, 0407ms total)
T16A8 000:755 JLINK_WriteReg(XPSR, 0x01000000)  returns 0x00 (0000ms, 0407ms total)
T16A8 000:755 JLINK_WriteReg(MSP, 0x20002000)  returns 0x00 (0000ms, 0407ms total)
T16A8 000:755 JLINK_WriteReg(PSP, 0x20002000)  returns 0x00 (0000ms, 0407ms total)
T16A8 000:755 JLINK_WriteReg(CFBP, 0x00000000)  returns 0x00 (0000ms, 0407ms total)
T16A8 000:755 JLINK_SetBPEx(Addr = 0x20000000, Type = 0xFFFFFFF2)  returns 0x00000002 (0000ms, 0407ms total)
T16A8 000:755 JLINK_Go() -- CPU_ReadMem(4 bytes @ 0xE0001000) -- CPU_WriteMem(4 bytes @ 0xE0001000) (0004ms, 0411ms total)
T16A8 000:759 JLINK_IsHalted() -- CPU_ReadMem(2 bytes @ 0x20000000)  returns TRUE (0005ms, 0416ms total)
T16A8 000:764 JLINK_ReadReg(R15 (PC))  returns 0x20000000 (0000ms, 0411ms total)
T16A8 000:764 JLINK_ClrBPEx(BPHandle = 0x00000002)  returns 0x00 (0000ms, 0411ms total)
T16A8 000:764 JLINK_ReadReg(R0)  returns 0x00000001 (0000ms, 0411ms total)
T16A8 000:764 JLINK_WriteReg(R0, 0x0001B000)  returns 0x00 (0000ms, 0411ms total)
T16A8 000:764 JLINK_WriteReg(R1, 0x00000400)  returns 0x00 (0000ms, 0411ms total)
T16A8 000:764 JLINK_WriteReg(R2, 0x000000FF)  returns 0x00 (0000ms, 0411ms total)
T16A8 000:764 JLINK_WriteReg(R3, 0x00000000)  returns 0x00 (0000ms, 0411ms total)
T16A8 000:764 JLINK_WriteReg(R4, 0x00000000)  returns 0x00 (0000ms, 0411ms total)
T16A8 000:764 JLINK_WriteReg(R5, 0x00000000)  returns 0x00 (0000ms, 0411ms total)
T16A8 000:764 JLINK_WriteReg(R6, 0x00000000)  returns 0x00 (0000ms, 0411ms total)
T16A8 000:764 JLINK_WriteReg(R7, 0x00000000)  returns 0x00 (0000ms, 0411ms total)
T16A8 000:764 JLINK_WriteReg(R8, 0x00000000)  returns 0x00 (0000ms, 0411ms total)
T16A8 000:764 JLINK_WriteReg(R9, 0x20000474)  returns 0x00 (0001ms, 0412ms total)
T16A8 000:765 JLINK_WriteReg(R10, 0x00000000)  returns 0x00 (0000ms, 0412ms total)
T16A8 000:765 JLINK_WriteReg(R11, 0x00000000)  returns 0x00 (0000ms, 0412ms total)
T16A8 000:765 JLINK_WriteReg(R12, 0x00000000)  returns 0x00 (0000ms, 0412ms total)
T16A8 000:765 JLINK_WriteReg(R13 (SP), 0x20002000)  returns 0x00 (0000ms, 0412ms total)
T16A8 000:765 JLINK_WriteReg(R14, 0x20000001)  returns 0x00 (0000ms, 0412ms total)
T16A8 000:765 JLINK_WriteReg(R15 (PC), 0x20000104)  returns 0x00 (0000ms, 0412ms total)
T16A8 000:765 JLINK_WriteReg(XPSR, 0x01000000)  returns 0x00 (0000ms, 0412ms total)
T16A8 000:765 JLINK_WriteReg(MSP, 0x20002000)  returns 0x00 (0000ms, 0412ms total)
T16A8 000:765 JLINK_WriteReg(PSP, 0x20002000)  returns 0x00 (0000ms, 0412ms total)
T16A8 000:765 JLINK_WriteReg(CFBP, 0x00000000)  returns 0x00 (0000ms, 0412ms total)
T16A8 000:765 JLINK_SetBPEx(Addr = 0x20000000, Type = 0xFFFFFFF2)  returns 0x00000003 (0000ms, 0412ms total)
T16A8 000:765 JLINK_Go() -- CPU_ReadMem(4 bytes @ 0xE0001000) -- CPU_WriteMem(4 bytes @ 0xE0001000) (0003ms, 0415ms total)
T16A8 000:768 JLINK_IsHalted()  returns FALSE (0001ms, 0416ms total)
T16A8 000:897 JLINK_IsHalted() -- CPU_ReadMem(2 bytes @ 0x20000000)  returns TRUE (0005ms, 0420ms total)
T16A8 000:902 JLINK_ReadReg(R15 (PC))  returns 0x20000000 (0000ms, 0415ms total)
T16A8 000:902 JLINK_ClrBPEx(BPHandle = 0x00000003)  returns 0x00 (0000ms, 0415ms total)
T16A8 000:902 JLINK_ReadReg(R0)  returns 0x00000000 (0000ms, 0415ms total)
T16A8 000:902 JLINK_WriteReg(R0, 0x0001B400)  returns 0x00 (0000ms, 0415ms total)
T16A8 000:902 JLINK_WriteReg(R1, 0x00000400)  returns 0x00 (0000ms, 0415ms total)
T16A8 000:902 JLINK_WriteReg(R2, 0x000000FF)  returns 0x00 (0000ms, 0415ms total)
T16A8 000:902 JLINK_WriteReg(R3, 0x00000000)  returns 0x00 (0000ms, 0415ms total)
T16A8 000:902 JLINK_WriteReg(R4, 0x00000000)  returns 0x00 (0000ms, 0415ms total)
T16A8 000:902 JLINK_WriteReg(R5, 0x00000000)  returns 0x00 (0000ms, 0415ms total)
T16A8 000:902 JLINK_WriteReg(R6, 0x00000000)  returns 0x00 (0000ms, 0415ms total)
T16A8 000:902 JLINK_WriteReg(R7, 0x00000000)  returns 0x00 (0000ms, 0415ms total)
T16A8 000:902 JLINK_WriteReg(R8, 0x00000000)  returns 0x00 (0000ms, 0415ms total)
T16A8 000:902 JLINK_WriteReg(R9, 0x20000474)  returns 0x00 (0000ms, 0415ms total)
T16A8 000:902 JLINK_WriteReg(R10, 0x00000000)  returns 0x00 (0000ms, 0415ms total)
T16A8 000:902 JLINK_WriteReg(R11, 0x00000000)  returns 0x00 (0000ms, 0415ms total)
T16A8 000:902 JLINK_WriteReg(R12, 0x00000000)  returns 0x00 (0001ms, 0416ms total)
T16A8 000:903 JLINK_WriteReg(R13 (SP), 0x20002000)  returns 0x00 (0000ms, 0416ms total)
T16A8 000:903 JLINK_WriteReg(R14, 0x20000001)  returns 0x00 (0000ms, 0416ms total)
T16A8 000:903 JLINK_WriteReg(R15 (PC), 0x20000188)  returns 0x00 (0000ms, 0416ms total)
T16A8 000:903 JLINK_WriteReg(XPSR, 0x01000000)  returns 0x00 (0000ms, 0416ms total)
T16A8 000:903 JLINK_WriteReg(MSP, 0x20002000)  returns 0x00 (0000ms, 0416ms total)
T16A8 000:903 JLINK_WriteReg(PSP, 0x20002000)  returns 0x00 (0000ms, 0416ms total)
T16A8 000:903 JLINK_WriteReg(CFBP, 0x00000000)  returns 0x00 (0000ms, 0416ms total)
T16A8 000:903 JLINK_SetBPEx(Addr = 0x20000000, Type = 0xFFFFFFF2)  returns 0x00000004 (0000ms, 0416ms total)
T16A8 000:903 JLINK_Go() -- CPU_ReadMem(4 bytes @ 0xE0001000) -- CPU_WriteMem(4 bytes @ 0xE0001000) (0005ms, 0421ms total)
T16A8 000:908 JLINK_IsHalted() -- CPU_ReadMem(2 bytes @ 0x20000000)  returns TRUE (0005ms, 0426ms total)
T16A8 000:913 JLINK_ReadReg(R15 (PC))  returns 0x20000000 (0000ms, 0421ms total)
T16A8 000:913 JLINK_ClrBPEx(BPHandle = 0x00000004)  returns 0x00 (0000ms, 0421ms total)
T16A8 000:913 JLINK_ReadReg(R0)  returns 0x00000001 (0000ms, 0421ms total)
T16A8 000:913 JLINK_WriteReg(R0, 0x0001B400)  returns 0x00 (0000ms, 0421ms total)
T16A8 000:913 JLINK_WriteReg(R1, 0x00000400)  returns 0x00 (0000ms, 0421ms total)
T16A8 000:913 JLINK_WriteReg(R2, 0x000000FF)  returns 0x00 (0000ms, 0421ms total)
T16A8 000:913 JLINK_WriteReg(R3, 0x00000000)  returns 0x00 (0000ms, 0421ms total)
T16A8 000:913 JLINK_WriteReg(R4, 0x00000000)  returns 0x00 (0000ms, 0421ms total)
T16A8 000:913 JLINK_WriteReg(R5, 0x00000000)  returns 0x00 (0000ms, 0421ms total)
T16A8 000:913 JLINK_WriteReg(R6, 0x00000000)  returns 0x00 (0000ms, 0421ms total)
T16A8 000:913 JLINK_WriteReg(R7, 0x00000000)  returns 0x00 (0000ms, 0421ms total)
T16A8 000:913 JLINK_WriteReg(R8, 0x00000000)  returns 0x00 (0000ms, 0421ms total)
T16A8 000:913 JLINK_WriteReg(R9, 0x20000474)  returns 0x00 (0000ms, 0421ms total)
T16A8 000:913 JLINK_WriteReg(R10, 0x00000000)  returns 0x00 (0000ms, 0421ms total)
T16A8 000:913 JLINK_WriteReg(R11, 0x00000000)  returns 0x00 (0000ms, 0421ms total)
T16A8 000:913 JLINK_WriteReg(R12, 0x00000000)  returns 0x00 (0000ms, 0421ms total)
T16A8 000:913 JLINK_WriteReg(R13 (SP), 0x20002000)  returns 0x00 (0000ms, 0421ms total)
T16A8 000:913 JLINK_WriteReg(R14, 0x20000001)  returns 0x00 (0000ms, 0421ms total)
T16A8 000:913 JLINK_WriteReg(R15 (PC), 0x20000104)  returns 0x00 (0000ms, 0421ms total)
T16A8 000:913 JLINK_WriteReg(XPSR, 0x01000000)  returns 0x00 (0000ms, 0421ms total)
T16A8 000:913 JLINK_WriteReg(MSP, 0x20002000)  returns 0x00 (0000ms, 0421ms total)
T16A8 000:913 JLINK_WriteReg(PSP, 0x20002000)  returns 0x00 (0000ms, 0421ms total)
T16A8 000:913 JLINK_WriteReg(CFBP, 0x00000000)  returns 0x00 (0000ms, 0421ms total)
T16A8 000:913 JLINK_SetBPEx(Addr = 0x20000000, Type = 0xFFFFFFF2)  returns 0x00000005 (0000ms, 0421ms total)
T16A8 000:913 JLINK_Go() -- CPU_ReadMem(4 bytes @ 0xE0001000) -- CPU_WriteMem(4 bytes @ 0xE0001000) (0005ms, 0426ms total)
T16A8 000:918 JLINK_IsHalted()  returns FALSE (0001ms, 0427ms total)
T16A8 001:045 JLINK_IsHalted() -- CPU_ReadMem(2 bytes @ 0x20000000)  returns TRUE (0005ms, 0431ms total)
T16A8 001:050 JLINK_ReadReg(R15 (PC))  returns 0x20000000 (0000ms, 0426ms total)
T16A8 001:050 JLINK_ClrBPEx(BPHandle = 0x00000005)  returns 0x00 (0000ms, 0426ms total)
T16A8 001:050 JLINK_ReadReg(R0)  returns 0x00000000 (0000ms, 0426ms total)
T16A8 001:051 JLINK_WriteReg(R0, 0x0001B800)  returns 0x00 (0000ms, 0426ms total)
T16A8 001:051 JLINK_WriteReg(R1, 0x00000400)  returns 0x00 (0000ms, 0426ms total)
T16A8 001:051 JLINK_WriteReg(R2, 0x000000FF)  returns 0x00 (0000ms, 0426ms total)
T16A8 001:051 JLINK_WriteReg(R3, 0x00000000)  returns 0x00 (0000ms, 0426ms total)
T16A8 001:051 JLINK_WriteReg(R4, 0x00000000)  returns 0x00 (0000ms, 0426ms total)
T16A8 001:051 JLINK_WriteReg(R5, 0x00000000)  returns 0x00 (0000ms, 0426ms total)
T16A8 001:051 JLINK_WriteReg(R6, 0x00000000)  returns 0x00 (0000ms, 0426ms total)
T16A8 001:051 JLINK_WriteReg(R7, 0x00000000)  returns 0x00 (0000ms, 0426ms total)
T16A8 001:051 JLINK_WriteReg(R8, 0x00000000)  returns 0x00 (0000ms, 0426ms total)
T16A8 001:051 JLINK_WriteReg(R9, 0x20000474)  returns 0x00 (0000ms, 0426ms total)
T16A8 001:051 JLINK_WriteReg(R10, 0x00000000)  returns 0x00 (0000ms, 0426ms total)
T16A8 001:051 JLINK_WriteReg(R11, 0x00000000)  returns 0x00 (0000ms, 0426ms total)
T16A8 001:051 JLINK_WriteReg(R12, 0x00000000)  returns 0x00 (0000ms, 0426ms total)
T16A8 001:051 JLINK_WriteReg(R13 (SP), 0x20002000)  returns 0x00 (0000ms, 0426ms total)
T16A8 001:051 JLINK_WriteReg(R14, 0x20000001)  returns 0x00 (0000ms, 0426ms total)
T16A8 001:051 JLINK_WriteReg(R15 (PC), 0x20000188)  returns 0x00 (0000ms, 0426ms total)
T16A8 001:051 JLINK_WriteReg(XPSR, 0x01000000)  returns 0x00 (0000ms, 0426ms total)
T16A8 001:051 JLINK_WriteReg(MSP, 0x20002000)  returns 0x00 (0000ms, 0426ms total)
T16A8 001:051 JLINK_WriteReg(PSP, 0x20002000)  returns 0x00 (0000ms, 0426ms total)
T16A8 001:051 JLINK_WriteReg(CFBP, 0x00000000)  returns 0x00 (0000ms, 0426ms total)
T16A8 001:051 JLINK_SetBPEx(Addr = 0x20000000, Type = 0xFFFFFFF2)  returns 0x00000006 (0000ms, 0426ms total)
T16A8 001:051 JLINK_Go() -- CPU_ReadMem(4 bytes @ 0xE0001000) -- CPU_WriteMem(4 bytes @ 0xE0001000) (0005ms, 0431ms total)
T16A8 001:056 JLINK_IsHalted() -- CPU_ReadMem(2 bytes @ 0x20000000)  returns TRUE (0006ms, 0437ms total)
T16A8 001:062 JLINK_ReadReg(R15 (PC))  returns 0x20000000 (0000ms, 0431ms total)
T16A8 001:062 JLINK_ClrBPEx(BPHandle = 0x00000006)  returns 0x00 (0000ms, 0431ms total)
T16A8 001:062 JLINK_ReadReg(R0)  returns 0x00000001 (0000ms, 0431ms total)
T16A8 001:062 JLINK_WriteReg(R0, 0x0001B800)  returns 0x00 (0000ms, 0431ms total)
T16A8 001:062 JLINK_WriteReg(R1, 0x00000400)  returns 0x00 (0000ms, 0431ms total)
T16A8 001:062 JLINK_WriteReg(R2, 0x000000FF)  returns 0x00 (0000ms, 0431ms total)
T16A8 001:062 JLINK_WriteReg(R3, 0x00000000)  returns 0x00 (0000ms, 0431ms total)
T16A8 001:062 JLINK_WriteReg(R4, 0x00000000)  returns 0x00 (0000ms, 0431ms total)
T16A8 001:062 JLINK_WriteReg(R5, 0x00000000)  returns 0x00 (0000ms, 0431ms total)
T16A8 001:062 JLINK_WriteReg(R6, 0x00000000)  returns 0x00 (0000ms, 0431ms total)
T16A8 001:062 JLINK_WriteReg(R7, 0x00000000)  returns 0x00 (0000ms, 0431ms total)
T16A8 001:062 JLINK_WriteReg(R8, 0x00000000)  returns 0x00 (0000ms, 0431ms total)
T16A8 001:062 JLINK_WriteReg(R9, 0x20000474)  returns 0x00 (0000ms, 0431ms total)
T16A8 001:062 JLINK_WriteReg(R10, 0x00000000)  returns 0x00 (0000ms, 0431ms total)
T16A8 001:062 JLINK_WriteReg(R11, 0x00000000)  returns 0x00 (0000ms, 0431ms total)
T16A8 001:062 JLINK_WriteReg(R12, 0x00000000)  returns 0x00 (0000ms, 0431ms total)
T16A8 001:062 JLINK_WriteReg(R13 (SP), 0x20002000)  returns 0x00 (0000ms, 0431ms total)
T16A8 001:062 JLINK_WriteReg(R14, 0x20000001)  returns 0x00 (0000ms, 0431ms total)
T16A8 001:062 JLINK_WriteReg(R15 (PC), 0x20000104)  returns 0x00 (0000ms, 0431ms total)
T16A8 001:062 JLINK_WriteReg(XPSR, 0x01000000)  returns 0x00 (0000ms, 0431ms total)
T16A8 001:062 JLINK_WriteReg(MSP, 0x20002000)  returns 0x00 (0000ms, 0431ms total)
T16A8 001:062 JLINK_WriteReg(PSP, 0x20002000)  returns 0x00 (0000ms, 0431ms total)
T16A8 001:062 JLINK_WriteReg(CFBP, 0x00000000)  returns 0x00 (0000ms, 0431ms total)
T16A8 001:062 JLINK_SetBPEx(Addr = 0x20000000, Type = 0xFFFFFFF2)  returns 0x00000007 (0000ms, 0431ms total)
T16A8 001:062 JLINK_Go() -- CPU_ReadMem(4 bytes @ 0xE0001000) -- CPU_WriteMem(4 bytes @ 0xE0001000) (0005ms, 0436ms total)
T16A8 001:067 JLINK_IsHalted()  returns FALSE (0001ms, 0437ms total)
T16A8 001:178 JLINK_IsHalted() -- CPU_ReadMem(2 bytes @ 0x20000000)  returns TRUE (0005ms, 0441ms total)
T16A8 001:183 JLINK_ReadReg(R15 (PC))  returns 0x20000000 (0000ms, 0436ms total)
T16A8 001:183 JLINK_ClrBPEx(BPHandle = 0x00000007)  returns 0x00 (0000ms, 0436ms total)
T16A8 001:183 JLINK_ReadReg(R0)  returns 0x00000000 (0000ms, 0436ms total)
T16A8 001:184 JLINK_WriteReg(R0, 0x0001BC00)  returns 0x00 (0000ms, 0436ms total)
T16A8 001:184 JLINK_WriteReg(R1, 0x00000400)  returns 0x00 (0000ms, 0436ms total)
T16A8 001:184 JLINK_WriteReg(R2, 0x000000FF)  returns 0x00 (0000ms, 0436ms total)
T16A8 001:184 JLINK_WriteReg(R3, 0x00000000)  returns 0x00 (0000ms, 0436ms total)
T16A8 001:184 JLINK_WriteReg(R4, 0x00000000)  returns 0x00 (0000ms, 0436ms total)
T16A8 001:184 JLINK_WriteReg(R5, 0x00000000)  returns 0x00 (0000ms, 0436ms total)
T16A8 001:184 JLINK_WriteReg(R6, 0x00000000)  returns 0x00 (0000ms, 0436ms total)
T16A8 001:184 JLINK_WriteReg(R7, 0x00000000)  returns 0x00 (0000ms, 0436ms total)
T16A8 001:184 JLINK_WriteReg(R8, 0x00000000)  returns 0x00 (0000ms, 0436ms total)
T16A8 001:184 JLINK_WriteReg(R9, 0x20000474)  returns 0x00 (0000ms, 0436ms total)
T16A8 001:184 JLINK_WriteReg(R10, 0x00000000)  returns 0x00 (0000ms, 0436ms total)
T16A8 001:184 JLINK_WriteReg(R11, 0x00000000)  returns 0x00 (0000ms, 0436ms total)
T16A8 001:184 JLINK_WriteReg(R12, 0x00000000)  returns 0x00 (0000ms, 0436ms total)
T16A8 001:184 JLINK_WriteReg(R13 (SP), 0x20002000)  returns 0x00 (0000ms, 0436ms total)
T16A8 001:184 JLINK_WriteReg(R14, 0x20000001)  returns 0x00 (0000ms, 0436ms total)
T16A8 001:184 JLINK_WriteReg(R15 (PC), 0x20000188)  returns 0x00 (0000ms, 0436ms total)
T16A8 001:184 JLINK_WriteReg(XPSR, 0x01000000)  returns 0x00 (0000ms, 0436ms total)
T16A8 001:184 JLINK_WriteReg(MSP, 0x20002000)  returns 0x00 (0000ms, 0436ms total)
T16A8 001:184 JLINK_WriteReg(PSP, 0x20002000)  returns 0x00 (0000ms, 0436ms total)
T16A8 001:184 JLINK_WriteReg(CFBP, 0x00000000)  returns 0x00 (0000ms, 0436ms total)
T16A8 001:184 JLINK_SetBPEx(Addr = 0x20000000, Type = 0xFFFFFFF2)  returns 0x00000008 (0000ms, 0436ms total)
T16A8 001:184 JLINK_Go() -- CPU_ReadMem(4 bytes @ 0xE0001000) -- CPU_WriteMem(4 bytes @ 0xE0001000) (0006ms, 0442ms total)
T16A8 001:190 JLINK_IsHalted() -- CPU_ReadMem(2 bytes @ 0x20000000)  returns TRUE (0005ms, 0447ms total)
T16A8 001:195 JLINK_ReadReg(R15 (PC))  returns 0x20000000 (0000ms, 0442ms total)
T16A8 001:195 JLINK_ClrBPEx(BPHandle = 0x00000008)  returns 0x00 (0000ms, 0442ms total)
T16A8 001:195 JLINK_ReadReg(R0)  returns 0x00000001 (0000ms, 0442ms total)
T16A8 001:195 JLINK_WriteReg(R0, 0x0001BC00)  returns 0x00 (0000ms, 0442ms total)
T16A8 001:195 JLINK_WriteReg(R1, 0x00000400)  returns 0x00 (0000ms, 0442ms total)
T16A8 001:195 JLINK_WriteReg(R2, 0x000000FF)  returns 0x00 (0000ms, 0442ms total)
T16A8 001:195 JLINK_WriteReg(R3, 0x00000000)  returns 0x00 (0000ms, 0442ms total)
T16A8 001:195 JLINK_WriteReg(R4, 0x00000000)  returns 0x00 (0000ms, 0442ms total)
T16A8 001:195 JLINK_WriteReg(R5, 0x00000000)  returns 0x00 (0000ms, 0442ms total)
T16A8 001:195 JLINK_WriteReg(R6, 0x00000000)  returns 0x00 (0000ms, 0442ms total)
T16A8 001:195 JLINK_WriteReg(R7, 0x00000000)  returns 0x00 (0000ms, 0442ms total)
T16A8 001:195 JLINK_WriteReg(R8, 0x00000000)  returns 0x00 (0000ms, 0442ms total)
T16A8 001:195 JLINK_WriteReg(R9, 0x20000474)  returns 0x00 (0000ms, 0442ms total)
T16A8 001:195 JLINK_WriteReg(R10, 0x00000000)  returns 0x00 (0000ms, 0442ms total)
T16A8 001:195 JLINK_WriteReg(R11, 0x00000000)  returns 0x00 (0000ms, 0442ms total)
T16A8 001:195 JLINK_WriteReg(R12, 0x00000000)  returns 0x00 (0000ms, 0442ms total)
T16A8 001:195 JLINK_WriteReg(R13 (SP), 0x20002000)  returns 0x00 (0000ms, 0442ms total)
T16A8 001:195 JLINK_WriteReg(R14, 0x20000001)  returns 0x00 (0000ms, 0442ms total)
T16A8 001:195 JLINK_WriteReg(R15 (PC), 0x20000104)  returns 0x00 (0000ms, 0442ms total)
T16A8 001:195 JLINK_WriteReg(XPSR, 0x01000000)  returns 0x00 (0000ms, 0442ms total)
T16A8 001:195 JLINK_WriteReg(MSP, 0x20002000)  returns 0x00 (0000ms, 0442ms total)
T16A8 001:195 JLINK_WriteReg(PSP, 0x20002000)  returns 0x00 (0000ms, 0442ms total)
T16A8 001:195 JLINK_WriteReg(CFBP, 0x00000000)  returns 0x00 (0000ms, 0442ms total)
T16A8 001:195 JLINK_SetBPEx(Addr = 0x20000000, Type = 0xFFFFFFF2)  returns 0x00000009 (0000ms, 0442ms total)
T16A8 001:195 JLINK_Go() -- CPU_ReadMem(4 bytes @ 0xE0001000) -- CPU_WriteMem(4 bytes @ 0xE0001000) (0005ms, 0447ms total)
T16A8 001:200 JLINK_IsHalted()  returns FALSE (0001ms, 0448ms total)
T16A8 001:332 JLINK_IsHalted() -- CPU_ReadMem(2 bytes @ 0x20000000)  returns TRUE (0005ms, 0452ms total)
T16A8 001:337 JLINK_ReadReg(R15 (PC))  returns 0x20000000 (0000ms, 0447ms total)
T16A8 001:337 JLINK_ClrBPEx(BPHandle = 0x00000009)  returns 0x00 (0000ms, 0447ms total)
T16A8 001:337 JLINK_ReadReg(R0)  returns 0x00000000 (0000ms, 0447ms total)
T16A8 001:338 JLINK_WriteReg(R0, 0x0001C000)  returns 0x00 (0000ms, 0447ms total)
T16A8 001:338 JLINK_WriteReg(R1, 0x00000400)  returns 0x00 (0000ms, 0447ms total)
T16A8 001:338 JLINK_WriteReg(R2, 0x000000FF)  returns 0x00 (0000ms, 0447ms total)
T16A8 001:338 JLINK_WriteReg(R3, 0x00000000)  returns 0x00 (0000ms, 0447ms total)
T16A8 001:338 JLINK_WriteReg(R4, 0x00000000)  returns 0x00 (0000ms, 0447ms total)
T16A8 001:338 JLINK_WriteReg(R5, 0x00000000)  returns 0x00 (0000ms, 0447ms total)
T16A8 001:338 JLINK_WriteReg(R6, 0x00000000)  returns 0x00 (0000ms, 0447ms total)
T16A8 001:338 JLINK_WriteReg(R7, 0x00000000)  returns 0x00 (0000ms, 0447ms total)
T16A8 001:338 JLINK_WriteReg(R8, 0x00000000)  returns 0x00 (0000ms, 0447ms total)
T16A8 001:338 JLINK_WriteReg(R9, 0x20000474)  returns 0x00 (0000ms, 0447ms total)
T16A8 001:338 JLINK_WriteReg(R10, 0x00000000)  returns 0x00 (0000ms, 0447ms total)
T16A8 001:338 JLINK_WriteReg(R11, 0x00000000)  returns 0x00 (0000ms, 0447ms total)
T16A8 001:338 JLINK_WriteReg(R12, 0x00000000)  returns 0x00 (0000ms, 0447ms total)
T16A8 001:338 JLINK_WriteReg(R13 (SP), 0x20002000)  returns 0x00 (0000ms, 0447ms total)
T16A8 001:338 JLINK_WriteReg(R14, 0x20000001)  returns 0x00 (0000ms, 0447ms total)
T16A8 001:338 JLINK_WriteReg(R15 (PC), 0x20000188)  returns 0x00 (0000ms, 0447ms total)
T16A8 001:338 JLINK_WriteReg(XPSR, 0x01000000)  returns 0x00 (0000ms, 0447ms total)
T16A8 001:338 JLINK_WriteReg(MSP, 0x20002000)  returns 0x00 (0000ms, 0447ms total)
T16A8 001:338 JLINK_WriteReg(PSP, 0x20002000)  returns 0x00 (0000ms, 0447ms total)
T16A8 001:338 JLINK_WriteReg(CFBP, 0x00000000)  returns 0x00 (0000ms, 0447ms total)
T16A8 001:338 JLINK_SetBPEx(Addr = 0x20000000, Type = 0xFFFFFFF2)  returns 0x0000000A (0000ms, 0447ms total)
T16A8 001:338 JLINK_Go() -- CPU_ReadMem(4 bytes @ 0xE0001000) -- CPU_WriteMem(4 bytes @ 0xE0001000) (0006ms, 0453ms total)
T16A8 001:344 JLINK_IsHalted() -- CPU_ReadMem(2 bytes @ 0x20000000)  returns TRUE (0005ms, 0458ms total)
T16A8 001:349 JLINK_ReadReg(R15 (PC))  returns 0x20000000 (0000ms, 0453ms total)
T16A8 001:349 JLINK_ClrBPEx(BPHandle = 0x0000000A)  returns 0x00 (0000ms, 0453ms total)
T16A8 001:349 JLINK_ReadReg(R0)  returns 0x00000001 (0000ms, 0453ms total)
T16A8 001:349 JLINK_WriteReg(R0, 0x0001C000)  returns 0x00 (0000ms, 0453ms total)
T16A8 001:349 JLINK_WriteReg(R1, 0x00000400)  returns 0x00 (0000ms, 0453ms total)
T16A8 001:349 JLINK_WriteReg(R2, 0x000000FF)  returns 0x00 (0000ms, 0453ms total)
T16A8 001:349 JLINK_WriteReg(R3, 0x00000000)  returns 0x00 (0000ms, 0453ms total)
T16A8 001:349 JLINK_WriteReg(R4, 0x00000000)  returns 0x00 (0000ms, 0453ms total)
T16A8 001:349 JLINK_WriteReg(R5, 0x00000000)  returns 0x00 (0000ms, 0453ms total)
T16A8 001:349 JLINK_WriteReg(R6, 0x00000000)  returns 0x00 (0000ms, 0453ms total)
T16A8 001:349 JLINK_WriteReg(R7, 0x00000000)  returns 0x00 (0000ms, 0453ms total)
T16A8 001:349 JLINK_WriteReg(R8, 0x00000000)  returns 0x00 (0000ms, 0453ms total)
T16A8 001:349 JLINK_WriteReg(R9, 0x20000474)  returns 0x00 (0000ms, 0453ms total)
T16A8 001:349 JLINK_WriteReg(R10, 0x00000000)  returns 0x00 (0000ms, 0453ms total)
T16A8 001:349 JLINK_WriteReg(R11, 0x00000000)  returns 0x00 (0000ms, 0453ms total)
T16A8 001:349 JLINK_WriteReg(R12, 0x00000000)  returns 0x00 (0000ms, 0453ms total)
T16A8 001:349 JLINK_WriteReg(R13 (SP), 0x20002000)  returns 0x00 (0000ms, 0453ms total)
T16A8 001:349 JLINK_WriteReg(R14, 0x20000001)  returns 0x00 (0000ms, 0453ms total)
T16A8 001:349 JLINK_WriteReg(R15 (PC), 0x20000104)  returns 0x00 (0000ms, 0453ms total)
T16A8 001:349 JLINK_WriteReg(XPSR, 0x01000000)  returns 0x00 (0000ms, 0453ms total)
T16A8 001:349 JLINK_WriteReg(MSP, 0x20002000)  returns 0x00 (0000ms, 0453ms total)
T16A8 001:349 JLINK_WriteReg(PSP, 0x20002000)  returns 0x00 (0000ms, 0453ms total)
T16A8 001:349 JLINK_WriteReg(CFBP, 0x00000000)  returns 0x00 (0000ms, 0453ms total)
T16A8 001:349 JLINK_SetBPEx(Addr = 0x20000000, Type = 0xFFFFFFF2)  returns 0x0000000B (0000ms, 0453ms total)
T16A8 001:349 JLINK_Go() -- CPU_ReadMem(4 bytes @ 0xE0001000) -- CPU_WriteMem(4 bytes @ 0xE0001000) (0005ms, 0458ms total)
T16A8 001:354 JLINK_IsHalted()  returns FALSE (0001ms, 0459ms total)
T16A8 001:466 JLINK_IsHalted() -- CPU_ReadMem(2 bytes @ 0x20000000)  returns TRUE (0005ms, 0463ms total)
T16A8 001:471 JLINK_ReadReg(R15 (PC))  returns 0x20000000 (0000ms, 0458ms total)
T16A8 001:471 JLINK_ClrBPEx(BPHandle = 0x0000000B)  returns 0x00 (0000ms, 0458ms total)
T16A8 001:471 JLINK_ReadReg(R0)  returns 0x00000000 (0000ms, 0458ms total)
T16A8 001:472 JLINK_WriteReg(R0, 0x0001C400)  returns 0x00 (0000ms, 0458ms total)
T16A8 001:472 JLINK_WriteReg(R1, 0x00000400)  returns 0x00 (0000ms, 0458ms total)
T16A8 001:472 JLINK_WriteReg(R2, 0x000000FF)  returns 0x00 (0000ms, 0458ms total)
T16A8 001:472 JLINK_WriteReg(R3, 0x00000000)  returns 0x00 (0000ms, 0458ms total)
T16A8 001:472 JLINK_WriteReg(R4, 0x00000000)  returns 0x00 (0000ms, 0458ms total)
T16A8 001:472 JLINK_WriteReg(R5, 0x00000000)  returns 0x00 (0000ms, 0458ms total)
T16A8 001:472 JLINK_WriteReg(R6, 0x00000000)  returns 0x00 (0000ms, 0458ms total)
T16A8 001:472 JLINK_WriteReg(R7, 0x00000000)  returns 0x00 (0000ms, 0458ms total)
T16A8 001:472 JLINK_WriteReg(R8, 0x00000000)  returns 0x00 (0000ms, 0458ms total)
T16A8 001:472 JLINK_WriteReg(R9, 0x20000474)  returns 0x00 (0000ms, 0458ms total)
T16A8 001:472 JLINK_WriteReg(R10, 0x00000000)  returns 0x00 (0000ms, 0458ms total)
T16A8 001:472 JLINK_WriteReg(R11, 0x00000000)  returns 0x00 (0000ms, 0458ms total)
T16A8 001:472 JLINK_WriteReg(R12, 0x00000000)  returns 0x00 (0000ms, 0458ms total)
T16A8 001:472 JLINK_WriteReg(R13 (SP), 0x20002000)  returns 0x00 (0000ms, 0458ms total)
T16A8 001:472 JLINK_WriteReg(R14, 0x20000001)  returns 0x00 (0000ms, 0458ms total)
T16A8 001:472 JLINK_WriteReg(R15 (PC), 0x20000188)  returns 0x00 (0000ms, 0458ms total)
T16A8 001:472 JLINK_WriteReg(XPSR, 0x01000000)  returns 0x00 (0000ms, 0458ms total)
T16A8 001:472 JLINK_WriteReg(MSP, 0x20002000)  returns 0x00 (0000ms, 0458ms total)
T16A8 001:472 JLINK_WriteReg(PSP, 0x20002000)  returns 0x00 (0000ms, 0458ms total)
T16A8 001:472 JLINK_WriteReg(CFBP, 0x00000000)  returns 0x00 (0000ms, 0458ms total)
T16A8 001:472 JLINK_SetBPEx(Addr = 0x20000000, Type = 0xFFFFFFF2)  returns 0x0000000C (0000ms, 0458ms total)
T16A8 001:472 JLINK_Go() -- CPU_ReadMem(4 bytes @ 0xE0001000) -- CPU_WriteMem(4 bytes @ 0xE0001000) (0006ms, 0464ms total)
T16A8 001:478 JLINK_IsHalted() -- CPU_ReadMem(2 bytes @ 0x20000000)  returns TRUE (0005ms, 0469ms total)
T16A8 001:483 JLINK_ReadReg(R15 (PC))  returns 0x20000000 (0000ms, 0464ms total)
T16A8 001:483 JLINK_ClrBPEx(BPHandle = 0x0000000C)  returns 0x00 (0000ms, 0464ms total)
T16A8 001:483 JLINK_ReadReg(R0)  returns 0x00000001 (0000ms, 0464ms total)
T16A8 001:483 JLINK_WriteReg(R0, 0x0001C400)  returns 0x00 (0000ms, 0464ms total)
T16A8 001:483 JLINK_WriteReg(R1, 0x00000400)  returns 0x00 (0000ms, 0464ms total)
T16A8 001:483 JLINK_WriteReg(R2, 0x000000FF)  returns 0x00 (0000ms, 0464ms total)
T16A8 001:483 JLINK_WriteReg(R3, 0x00000000)  returns 0x00 (0000ms, 0464ms total)
T16A8 001:483 JLINK_WriteReg(R4, 0x00000000)  returns 0x00 (0000ms, 0464ms total)
T16A8 001:483 JLINK_WriteReg(R5, 0x00000000)  returns 0x00 (0000ms, 0464ms total)
T16A8 001:483 JLINK_WriteReg(R6, 0x00000000)  returns 0x00 (0000ms, 0464ms total)
T16A8 001:483 JLINK_WriteReg(R7, 0x00000000)  returns 0x00 (0000ms, 0464ms total)
T16A8 001:483 JLINK_WriteReg(R8, 0x00000000)  returns 0x00 (0000ms, 0464ms total)
T16A8 001:483 JLINK_WriteReg(R9, 0x20000474)  returns 0x00 (0000ms, 0464ms total)
T16A8 001:483 JLINK_WriteReg(R10, 0x00000000)  returns 0x00 (0000ms, 0464ms total)
T16A8 001:483 JLINK_WriteReg(R11, 0x00000000)  returns 0x00 (0000ms, 0464ms total)
T16A8 001:483 JLINK_WriteReg(R12, 0x00000000)  returns 0x00 (0000ms, 0464ms total)
T16A8 001:483 JLINK_WriteReg(R13 (SP), 0x20002000)  returns 0x00 (0000ms, 0464ms total)
T16A8 001:483 JLINK_WriteReg(R14, 0x20000001)  returns 0x00 (0000ms, 0464ms total)
T16A8 001:483 JLINK_WriteReg(R15 (PC), 0x20000104)  returns 0x00 (0000ms, 0464ms total)
T16A8 001:483 JLINK_WriteReg(XPSR, 0x01000000)  returns 0x00 (0000ms, 0464ms total)
T16A8 001:483 JLINK_WriteReg(MSP, 0x20002000)  returns 0x00 (0000ms, 0464ms total)
T16A8 001:483 JLINK_WriteReg(PSP, 0x20002000)  returns 0x00 (0000ms, 0464ms total)
T16A8 001:483 JLINK_WriteReg(CFBP, 0x00000000)  returns 0x00 (0000ms, 0464ms total)
T16A8 001:483 JLINK_SetBPEx(Addr = 0x20000000, Type = 0xFFFFFFF2)  returns 0x0000000D (0000ms, 0464ms total)
T16A8 001:483 JLINK_Go() -- CPU_ReadMem(4 bytes @ 0xE0001000) -- CPU_WriteMem(4 bytes @ 0xE0001000) (0004ms, 0468ms total)
T16A8 001:487 JLINK_IsHalted()  returns FALSE (0001ms, 0469ms total)
T16A8 001:599 JLINK_IsHalted() -- CPU_ReadMem(2 bytes @ 0x20000000)  returns TRUE (0005ms, 0473ms total)
T16A8 001:604 JLINK_ReadReg(R15 (PC))  returns 0x20000000 (0000ms, 0468ms total)
T16A8 001:604 JLINK_ClrBPEx(BPHandle = 0x0000000D)  returns 0x00 (0000ms, 0468ms total)
T16A8 001:604 JLINK_ReadReg(R0)  returns 0x00000000 (0000ms, 0468ms total)
T16A8 001:605 JLINK_WriteReg(R0, 0x0001C800)  returns 0x00 (0000ms, 0468ms total)
T16A8 001:605 JLINK_WriteReg(R1, 0x00000400)  returns 0x00 (0000ms, 0468ms total)
T16A8 001:605 JLINK_WriteReg(R2, 0x000000FF)  returns 0x00 (0000ms, 0468ms total)
T16A8 001:605 JLINK_WriteReg(R3, 0x00000000)  returns 0x00 (0000ms, 0468ms total)
T16A8 001:605 JLINK_WriteReg(R4, 0x00000000)  returns 0x00 (0000ms, 0468ms total)
T16A8 001:605 JLINK_WriteReg(R5, 0x00000000)  returns 0x00 (0000ms, 0468ms total)
T16A8 001:605 JLINK_WriteReg(R6, 0x00000000)  returns 0x00 (0000ms, 0468ms total)
T16A8 001:605 JLINK_WriteReg(R7, 0x00000000)  returns 0x00 (0000ms, 0468ms total)
T16A8 001:605 JLINK_WriteReg(R8, 0x00000000)  returns 0x00 (0000ms, 0468ms total)
T16A8 001:605 JLINK_WriteReg(R9, 0x20000474)  returns 0x00 (0000ms, 0468ms total)
T16A8 001:605 JLINK_WriteReg(R10, 0x00000000)  returns 0x00 (0000ms, 0468ms total)
T16A8 001:605 JLINK_WriteReg(R11, 0x00000000)  returns 0x00 (0000ms, 0468ms total)
T16A8 001:605 JLINK_WriteReg(R12, 0x00000000)  returns 0x00 (0000ms, 0468ms total)
T16A8 001:605 JLINK_WriteReg(R13 (SP), 0x20002000)  returns 0x00 (0000ms, 0468ms total)
T16A8 001:605 JLINK_WriteReg(R14, 0x20000001)  returns 0x00 (0000ms, 0468ms total)
T16A8 001:605 JLINK_WriteReg(R15 (PC), 0x20000188)  returns 0x00 (0000ms, 0468ms total)
T16A8 001:605 JLINK_WriteReg(XPSR, 0x01000000)  returns 0x00 (0000ms, 0468ms total)
T16A8 001:605 JLINK_WriteReg(MSP, 0x20002000)  returns 0x00 (0000ms, 0468ms total)
T16A8 001:605 JLINK_WriteReg(PSP, 0x20002000)  returns 0x00 (0000ms, 0468ms total)
T16A8 001:605 JLINK_WriteReg(CFBP, 0x00000000)  returns 0x00 (0000ms, 0468ms total)
T16A8 001:605 JLINK_SetBPEx(Addr = 0x20000000, Type = 0xFFFFFFF2)  returns 0x0000000E (0000ms, 0468ms total)
T16A8 001:605 JLINK_Go() -- CPU_ReadMem(4 bytes @ 0xE0001000) -- CPU_WriteMem(4 bytes @ 0xE0001000) (0005ms, 0473ms total)
T16A8 001:610 JLINK_IsHalted() -- CPU_ReadMem(2 bytes @ 0x20000000)  returns TRUE (0005ms, 0478ms total)
T16A8 001:615 JLINK_ReadReg(R15 (PC))  returns 0x20000000 (0000ms, 0473ms total)
T16A8 001:615 JLINK_ClrBPEx(BPHandle = 0x0000000E)  returns 0x00 (0000ms, 0473ms total)
T16A8 001:615 JLINK_ReadReg(R0)  returns 0x00000001 (0000ms, 0473ms total)
T16A8 001:615 JLINK_WriteReg(R0, 0x0001C800)  returns 0x00 (0000ms, 0473ms total)
T16A8 001:615 JLINK_WriteReg(R1, 0x00000400)  returns 0x00 (0000ms, 0473ms total)
T16A8 001:615 JLINK_WriteReg(R2, 0x000000FF)  returns 0x00 (0000ms, 0473ms total)
T16A8 001:615 JLINK_WriteReg(R3, 0x00000000)  returns 0x00 (0000ms, 0473ms total)
T16A8 001:615 JLINK_WriteReg(R4, 0x00000000)  returns 0x00 (0000ms, 0473ms total)
T16A8 001:615 JLINK_WriteReg(R5, 0x00000000)  returns 0x00 (0000ms, 0473ms total)
T16A8 001:615 JLINK_WriteReg(R6, 0x00000000)  returns 0x00 (0000ms, 0473ms total)
T16A8 001:615 JLINK_WriteReg(R7, 0x00000000)  returns 0x00 (0000ms, 0473ms total)
T16A8 001:615 JLINK_WriteReg(R8, 0x00000000)  returns 0x00 (0000ms, 0473ms total)
T16A8 001:615 JLINK_WriteReg(R9, 0x20000474)  returns 0x00 (0000ms, 0473ms total)
T16A8 001:615 JLINK_WriteReg(R10, 0x00000000)  returns 0x00 (0000ms, 0473ms total)
T16A8 001:615 JLINK_WriteReg(R11, 0x00000000)  returns 0x00 (0000ms, 0473ms total)
T16A8 001:616 JLINK_WriteReg(R12, 0x00000000)  returns 0x00 (0000ms, 0474ms total)
T16A8 001:616 JLINK_WriteReg(R13 (SP), 0x20002000)  returns 0x00 (0000ms, 0474ms total)
T16A8 001:616 JLINK_WriteReg(R14, 0x20000001)  returns 0x00 (0000ms, 0474ms total)
T16A8 001:616 JLINK_WriteReg(R15 (PC), 0x20000104)  returns 0x00 (0000ms, 0474ms total)
T16A8 001:616 JLINK_WriteReg(XPSR, 0x01000000)  returns 0x00 (0000ms, 0474ms total)
T16A8 001:616 JLINK_WriteReg(MSP, 0x20002000)  returns 0x00 (0000ms, 0474ms total)
T16A8 001:616 JLINK_WriteReg(PSP, 0x20002000)  returns 0x00 (0000ms, 0474ms total)
T16A8 001:616 JLINK_WriteReg(CFBP, 0x00000000)  returns 0x00 (0000ms, 0474ms total)
T16A8 001:616 JLINK_SetBPEx(Addr = 0x20000000, Type = 0xFFFFFFF2)  returns 0x0000000F (0000ms, 0474ms total)
T16A8 001:616 JLINK_Go() -- CPU_ReadMem(4 bytes @ 0xE0001000) -- CPU_WriteMem(4 bytes @ 0xE0001000) (0003ms, 0477ms total)
T16A8 001:619 JLINK_IsHalted()  returns FALSE (0001ms, 0478ms total)
T16A8 001:734 JLINK_IsHalted() -- CPU_ReadMem(2 bytes @ 0x20000000)  returns TRUE (0005ms, 0482ms total)
T16A8 001:739 JLINK_ReadReg(R15 (PC))  returns 0x20000000 (0000ms, 0477ms total)
T16A8 001:739 JLINK_ClrBPEx(BPHandle = 0x0000000F)  returns 0x00 (0000ms, 0477ms total)
T16A8 001:739 JLINK_ReadReg(R0)  returns 0x00000000 (0000ms, 0477ms total)
T16A8 001:739 JLINK_WriteReg(R0, 0x0001CC00)  returns 0x00 (0000ms, 0477ms total)
T16A8 001:739 JLINK_WriteReg(R1, 0x00000400)  returns 0x00 (0000ms, 0477ms total)
T16A8 001:739 JLINK_WriteReg(R2, 0x000000FF)  returns 0x00 (0000ms, 0477ms total)
T16A8 001:739 JLINK_WriteReg(R3, 0x00000000)  returns 0x00 (0000ms, 0477ms total)
T16A8 001:739 JLINK_WriteReg(R4, 0x00000000)  returns 0x00 (0000ms, 0477ms total)
T16A8 001:739 JLINK_WriteReg(R5, 0x00000000)  returns 0x00 (0000ms, 0477ms total)
T16A8 001:739 JLINK_WriteReg(R6, 0x00000000)  returns 0x00 (0000ms, 0477ms total)
T16A8 001:739 JLINK_WriteReg(R7, 0x00000000)  returns 0x00 (0000ms, 0477ms total)
T16A8 001:739 JLINK_WriteReg(R8, 0x00000000)  returns 0x00 (0000ms, 0477ms total)
T16A8 001:739 JLINK_WriteReg(R9, 0x20000474)  returns 0x00 (0000ms, 0477ms total)
T16A8 001:739 JLINK_WriteReg(R10, 0x00000000)  returns 0x00 (0000ms, 0477ms total)
T16A8 001:739 JLINK_WriteReg(R11, 0x00000000)  returns 0x00 (0000ms, 0477ms total)
T16A8 001:739 JLINK_WriteReg(R12, 0x00000000)  returns 0x00 (0000ms, 0477ms total)
T16A8 001:739 JLINK_WriteReg(R13 (SP), 0x20002000)  returns 0x00 (0000ms, 0477ms total)
T16A8 001:739 JLINK_WriteReg(R14, 0x20000001)  returns 0x00 (0001ms, 0478ms total)
T16A8 001:740 JLINK_WriteReg(R15 (PC), 0x20000188)  returns 0x00 (0000ms, 0478ms total)
T16A8 001:740 JLINK_WriteReg(XPSR, 0x01000000)  returns 0x00 (0000ms, 0478ms total)
T16A8 001:740 JLINK_WriteReg(MSP, 0x20002000)  returns 0x00 (0000ms, 0478ms total)
T16A8 001:740 JLINK_WriteReg(PSP, 0x20002000)  returns 0x00 (0000ms, 0478ms total)
T16A8 001:740 JLINK_WriteReg(CFBP, 0x00000000)  returns 0x00 (0000ms, 0478ms total)
T16A8 001:740 JLINK_SetBPEx(Addr = 0x20000000, Type = 0xFFFFFFF2)  returns 0x00000010 (0000ms, 0478ms total)
T16A8 001:740 JLINK_Go() -- CPU_ReadMem(4 bytes @ 0xE0001000) -- CPU_WriteMem(4 bytes @ 0xE0001000) (0005ms, 0483ms total)
T16A8 001:745 JLINK_IsHalted() -- CPU_ReadMem(2 bytes @ 0x20000000)  returns TRUE (0005ms, 0488ms total)
T16A8 001:750 JLINK_ReadReg(R15 (PC))  returns 0x20000000 (0000ms, 0483ms total)
T16A8 001:750 JLINK_ClrBPEx(BPHandle = 0x00000010)  returns 0x00 (0000ms, 0483ms total)
T16A8 001:750 JLINK_ReadReg(R0)  returns 0x00000001 (0000ms, 0483ms total)
T16A8 001:750 JLINK_WriteReg(R0, 0x0001CC00)  returns 0x00 (0000ms, 0483ms total)
T16A8 001:750 JLINK_WriteReg(R1, 0x00000400)  returns 0x00 (0000ms, 0483ms total)
T16A8 001:750 JLINK_WriteReg(R2, 0x000000FF)  returns 0x00 (0000ms, 0483ms total)
T16A8 001:750 JLINK_WriteReg(R3, 0x00000000)  returns 0x00 (0000ms, 0483ms total)
T16A8 001:750 JLINK_WriteReg(R4, 0x00000000)  returns 0x00 (0000ms, 0483ms total)
T16A8 001:750 JLINK_WriteReg(R5, 0x00000000)  returns 0x00 (0000ms, 0483ms total)
T16A8 001:750 JLINK_WriteReg(R6, 0x00000000)  returns 0x00 (0000ms, 0483ms total)
T16A8 001:750 JLINK_WriteReg(R7, 0x00000000)  returns 0x00 (0000ms, 0483ms total)
T16A8 001:750 JLINK_WriteReg(R8, 0x00000000)  returns 0x00 (0000ms, 0483ms total)
T16A8 001:750 JLINK_WriteReg(R9, 0x20000474)  returns 0x00 (0000ms, 0483ms total)
T16A8 001:750 JLINK_WriteReg(R10, 0x00000000)  returns 0x00 (0000ms, 0483ms total)
T16A8 001:750 JLINK_WriteReg(R11, 0x00000000)  returns 0x00 (0000ms, 0483ms total)
T16A8 001:750 JLINK_WriteReg(R12, 0x00000000)  returns 0x00 (0000ms, 0483ms total)
T16A8 001:750 JLINK_WriteReg(R13 (SP), 0x20002000)  returns 0x00 (0000ms, 0483ms total)
T16A8 001:750 JLINK_WriteReg(R14, 0x20000001)  returns 0x00 (0000ms, 0483ms total)
T16A8 001:750 JLINK_WriteReg(R15 (PC), 0x20000104)  returns 0x00 (0000ms, 0483ms total)
T16A8 001:750 JLINK_WriteReg(XPSR, 0x01000000)  returns 0x00 (0000ms, 0483ms total)
T16A8 001:750 JLINK_WriteReg(MSP, 0x20002000)  returns 0x00 (0000ms, 0483ms total)
T16A8 001:750 JLINK_WriteReg(PSP, 0x20002000)  returns 0x00 (0000ms, 0483ms total)
T16A8 001:750 JLINK_WriteReg(CFBP, 0x00000000)  returns 0x00 (0000ms, 0483ms total)
T16A8 001:750 JLINK_SetBPEx(Addr = 0x20000000, Type = 0xFFFFFFF2)  returns 0x00000011 (0000ms, 0483ms total)
T16A8 001:750 JLINK_Go() -- CPU_ReadMem(4 bytes @ 0xE0001000) -- CPU_WriteMem(4 bytes @ 0xE0001000) (0004ms, 0487ms total)
T16A8 001:754 JLINK_IsHalted()  returns FALSE (0001ms, 0488ms total)
T16A8 001:886 JLINK_IsHalted() -- CPU_ReadMem(2 bytes @ 0x20000000)  returns TRUE (0005ms, 0492ms total)
T16A8 001:891 JLINK_ReadReg(R15 (PC))  returns 0x20000000 (0000ms, 0487ms total)
T16A8 001:891 JLINK_ClrBPEx(BPHandle = 0x00000011)  returns 0x00 (0000ms, 0487ms total)
T16A8 001:891 JLINK_ReadReg(R0)  returns 0x00000000 (0000ms, 0487ms total)
T16A8 001:891 JLINK_WriteReg(R0, 0x0001D000)  returns 0x00 (0000ms, 0487ms total)
T16A8 001:891 JLINK_WriteReg(R1, 0x00000400)  returns 0x00 (0000ms, 0487ms total)
T16A8 001:891 JLINK_WriteReg(R2, 0x000000FF)  returns 0x00 (0000ms, 0487ms total)
T16A8 001:891 JLINK_WriteReg(R3, 0x00000000)  returns 0x00 (0000ms, 0487ms total)
T16A8 001:891 JLINK_WriteReg(R4, 0x00000000)  returns 0x00 (0000ms, 0487ms total)
T16A8 001:891 JLINK_WriteReg(R5, 0x00000000)  returns 0x00 (0000ms, 0487ms total)
T16A8 001:891 JLINK_WriteReg(R6, 0x00000000)  returns 0x00 (0000ms, 0487ms total)
T16A8 001:891 JLINK_WriteReg(R7, 0x00000000)  returns 0x00 (0000ms, 0487ms total)
T16A8 001:891 JLINK_WriteReg(R8, 0x00000000)  returns 0x00 (0000ms, 0487ms total)
T16A8 001:891 JLINK_WriteReg(R9, 0x20000474)  returns 0x00 (0000ms, 0487ms total)
T16A8 001:891 JLINK_WriteReg(R10, 0x00000000)  returns 0x00 (0000ms, 0487ms total)
T16A8 001:891 JLINK_WriteReg(R11, 0x00000000)  returns 0x00 (0000ms, 0487ms total)
T16A8 001:891 JLINK_WriteReg(R12, 0x00000000)  returns 0x00 (0000ms, 0487ms total)
T16A8 001:891 JLINK_WriteReg(R13 (SP), 0x20002000)  returns 0x00 (0000ms, 0487ms total)
T16A8 001:891 JLINK_WriteReg(R14, 0x20000001)  returns 0x00 (0000ms, 0487ms total)
T16A8 001:891 JLINK_WriteReg(R15 (PC), 0x20000188)  returns 0x00 (0001ms, 0488ms total)
T16A8 001:892 JLINK_WriteReg(XPSR, 0x01000000)  returns 0x00 (0000ms, 0488ms total)
T16A8 001:892 JLINK_WriteReg(MSP, 0x20002000)  returns 0x00 (0000ms, 0488ms total)
T16A8 001:892 JLINK_WriteReg(PSP, 0x20002000)  returns 0x00 (0000ms, 0488ms total)
T16A8 001:892 JLINK_WriteReg(CFBP, 0x00000000)  returns 0x00 (0000ms, 0488ms total)
T16A8 001:892 JLINK_SetBPEx(Addr = 0x20000000, Type = 0xFFFFFFF2)  returns 0x00000012 (0000ms, 0488ms total)
T16A8 001:892 JLINK_Go() -- CPU_ReadMem(4 bytes @ 0xE0001000) -- CPU_WriteMem(4 bytes @ 0xE0001000) (0005ms, 0493ms total)
T16A8 001:897 JLINK_IsHalted() -- CPU_ReadMem(2 bytes @ 0x20000000)  returns TRUE (0005ms, 0498ms total)
T16A8 001:902 JLINK_ReadReg(R15 (PC))  returns 0x20000000 (0000ms, 0493ms total)
T16A8 001:902 JLINK_ClrBPEx(BPHandle = 0x00000012)  returns 0x00 (0000ms, 0493ms total)
T16A8 001:902 JLINK_ReadReg(R0)  returns 0x00000001 (0000ms, 0493ms total)
T16A8 001:902 JLINK_WriteReg(R0, 0x0001D000)  returns 0x00 (0000ms, 0493ms total)
T16A8 001:902 JLINK_WriteReg(R1, 0x00000400)  returns 0x00 (0000ms, 0493ms total)
T16A8 001:902 JLINK_WriteReg(R2, 0x000000FF)  returns 0x00 (0000ms, 0493ms total)
T16A8 001:902 JLINK_WriteReg(R3, 0x00000000)  returns 0x00 (0000ms, 0493ms total)
T16A8 001:902 JLINK_WriteReg(R4, 0x00000000)  returns 0x00 (0000ms, 0493ms total)
T16A8 001:902 JLINK_WriteReg(R5, 0x00000000)  returns 0x00 (0000ms, 0493ms total)
T16A8 001:902 JLINK_WriteReg(R6, 0x00000000)  returns 0x00 (0000ms, 0493ms total)
T16A8 001:902 JLINK_WriteReg(R7, 0x00000000)  returns 0x00 (0000ms, 0493ms total)
T16A8 001:902 JLINK_WriteReg(R8, 0x00000000)  returns 0x00 (0000ms, 0493ms total)
T16A8 001:902 JLINK_WriteReg(R9, 0x20000474)  returns 0x00 (0000ms, 0493ms total)
T16A8 001:902 JLINK_WriteReg(R10, 0x00000000)  returns 0x00 (0000ms, 0493ms total)
T16A8 001:902 JLINK_WriteReg(R11, 0x00000000)  returns 0x00 (0000ms, 0493ms total)
T16A8 001:902 JLINK_WriteReg(R12, 0x00000000)  returns 0x00 (0000ms, 0493ms total)
T16A8 001:902 JLINK_WriteReg(R13 (SP), 0x20002000)  returns 0x00 (0000ms, 0493ms total)
T16A8 001:902 JLINK_WriteReg(R14, 0x20000001)  returns 0x00 (0000ms, 0493ms total)
T16A8 001:902 JLINK_WriteReg(R15 (PC), 0x20000104)  returns 0x00 (0000ms, 0493ms total)
T16A8 001:902 JLINK_WriteReg(XPSR, 0x01000000)  returns 0x00 (0000ms, 0493ms total)
T16A8 001:902 JLINK_WriteReg(MSP, 0x20002000)  returns 0x00 (0000ms, 0493ms total)
T16A8 001:902 JLINK_WriteReg(PSP, 0x20002000)  returns 0x00 (0000ms, 0493ms total)
T16A8 001:902 JLINK_WriteReg(CFBP, 0x00000000)  returns 0x00 (0000ms, 0493ms total)
T16A8 001:902 JLINK_SetBPEx(Addr = 0x20000000, Type = 0xFFFFFFF2)  returns 0x00000013 (0000ms, 0493ms total)
T16A8 001:902 JLINK_Go() -- CPU_ReadMem(4 bytes @ 0xE0001000) -- CPU_WriteMem(4 bytes @ 0xE0001000) (0004ms, 0497ms total)
T16A8 001:906 JLINK_IsHalted()  returns FALSE (0001ms, 0498ms total)
T16A8 002:045 JLINK_IsHalted() -- CPU_ReadMem(2 bytes @ 0x20000000)  returns TRUE (0006ms, 0503ms total)
T16A8 002:051 JLINK_ReadReg(R15 (PC))  returns 0x20000000 (0000ms, 0497ms total)
T16A8 002:051 JLINK_ClrBPEx(BPHandle = 0x00000013)  returns 0x00 (0000ms, 0497ms total)
T16A8 002:051 JLINK_ReadReg(R0)  returns 0x00000000 (0000ms, 0497ms total)
T16A8 002:051 JLINK_WriteReg(R0, 0x0001D400)  returns 0x00 (0000ms, 0497ms total)
